(1503605450.762003) vcan0 00F4050D#2C01D60700000000
(1503605491.149179) vcan0 00F4050D#983A370800000000
(1503605524.704599) vcan0 00F4050D#00002A0800000000
(1503605555.224202) vcan0 00F4050D#0000C90700000000
(1503605598.880390) vcan0 00F4050D#0000CB0700000000
(1503605598.924142) vcan0 00F4050D#0000210800000000
(1503605599.026348) vcan0 00F4050D#0000D70700000000
(1503605599.128564) vcan0 00F4050D#0000350800000000
(1503605599.230979) vcan0 00F4050D#0000360800000000
(1503605599.333362) vcan0 00F4050D#0000C30700000000
(1503605599.435424) vcan0 00F4050D#0000D10700000000
(1503605599.537581) vcan0 00F4050D#00003D0800000000
(1503605599.640002) vcan0 00F4050D#0000400800000000
(1503605599.742168) vcan0 00F4050D#0000BB0700000000
(1503605599.844480) vcan0 00F4050D#0000190800000000
(1503605599.946654) vcan0 00F4050D#0000D40700000000
(1503605600.049024) vcan0 00F4050D#0000280800000000
(1503605600.151354) vcan0 00F4050D#00003A0800000000
(1503605600.253629) vcan0 00F4050D#0000C70700000000
(1503605600.355858) vcan0 00F4050D#00002A0800000000
(1503605600.458213) vcan0 00F4050D#00003A0800000000
(1503605600.560478) vcan0 00F4050D#0000C60700000000
(1503605600.662802) vcan0 00F4050D#0000C80700000000
(1503605600.765120) vcan0 00F4050D#0000360800000000
(1503605600.867326) vcan0 00F4050D#00002C0800000000
(1503605600.969716) vcan0 00F4050D#0000CD0700000000
(1503605601.071936) vcan0 00F4050D#0000D10700000000
(1503605601.175435) vcan0 00F4050D#00003D0800000000
(1503605601.276537) vcan0 00F4050D#0000D00700000000
(1503605601.378752) vcan0 00F4050D#0000440800000000
(1503605601.481144) vcan0 00F4050D#0000300800000000
(1503605601.583271) vcan0 00F4050D#00003A0800000000
(1503605601.685707) vcan0 00F4050D#0000C70700000000
(1503605601.787855) vcan0 00F4050D#0000D00700000000
(1503605601.890178) vcan0 00F4050D#0000410800000000
(1503605601.992565) vcan0 00F4050D#0000C80700000000
(1503605602.094791) vcan0 00F4050D#0000450800000000
(1503605602.197004) vcan0 00F4050D#00003E0800000000
(1503605602.299371) vcan0 00F4050D#0000BF0700000000
(1503605602.401658) vcan0 00F4050D#00003D0800000000
(1503605602.503756) vcan0 00F4050D#0000BD0700000000
(1503605602.606132) vcan0 00F4050D#0000280800000000
(1503605602.708507) vcan0 00F4050D#0000400800000000
(1503605602.810795) vcan0 00F4050D#00003F0800000000
(1503605602.913117) vcan0 00F4050D#0000C90700000000
(1503605603.015348) vcan0 00F4050D#00002F0800000000
(1503605603.117628) vcan0 00F4050D#0000D60700000000
(1503605603.219948) vcan0 00F4050D#0000370800000000
(1503605603.322280) vcan0 00F4050D#0000CB0700000000
(1503605603.424502) vcan0 00F4050D#0000CA0700000000
(1503605603.526773) vcan0 00F4050D#00003F0800000000
(1503605603.629126) vcan0 00F4050D#00004A0800000000
(1503605603.731385) vcan0 00F4050D#0000C10700000000
(1503605603.833653) vcan0 00F4050D#0000D70700000000
(1503605603.935933) vcan0 00F4050D#0000240800000000
(1503605604.038313) vcan0 00F4050D#00002A0800000000
(1503605604.140622) vcan0 00F4050D#0000D20700000000
(1503605604.242891) vcan0 00F4050D#00002B0800000000
(1503605604.345027) vcan0 00F4050D#0000500800000000
(1503605604.447459) vcan0 00F4050D#00002D0800000000
(1503605604.549795) vcan0 00F4050D#0000DF0700000000
(1503605604.652167) vcan0 00F4050D#0000500800000000
(1503605604.754314) vcan0 00F4050D#0000DD0700000000
(1503605604.856613) vcan0 00F4050D#0000D40700000000
(1503605604.958910) vcan0 00F4050D#0000CB0700000000
(1503605605.061238) vcan0 00F4050D#0000B80700000000
(1503605605.163498) vcan0 00F4050D#0000270800000000
(1503605605.265721) vcan0 00F4050D#0000370800000000
(1503605605.368131) vcan0 00F4050D#0000D50700000000
(1503605605.470328) vcan0 00F4050D#00002D0800000000
(1503605605.572613) vcan0 00F4050D#0000310800000000
(1503605605.674908) vcan0 00F4050D#0000D60700000000
(1503605605.777137) vcan0 00F4050D#00002B0800000000
(1503605605.879560) vcan0 00F4050D#0000420800000000
(1503605605.981822) vcan0 00F4050D#0000E50700000000
(1503605606.084228) vcan0 00F4050D#0000D20700000000
(1503605606.186450) vcan0 00F4050D#0000CB0700000000
(1503605606.288811) vcan0 00F4050D#0000CA0700000000
(1503605606.390895) vcan0 00F4050D#0000370800000000
(1503605606.493180) vcan0 00F4050D#0000BF0700000000
(1503605606.595553) vcan0 00F4050D#0000CA0700000000
(1503605606.697726) vcan0 00F4050D#00002F0800000000
(1503605606.800077) vcan0 00F4050D#0000C90700000000
(1503605606.902295) vcan0 00F4050D#0000CB0700000000
(1503605607.004654) vcan0 00F4050D#0000460800000000
(1503605607.106914) vcan0 00F4050D#00002F0800000000
(1503605607.209287) vcan0 00F4050D#0000350800000000
(1503605607.311652) vcan0 00F4050D#00004A0800000000
(1503605607.413850) vcan0 00F4050D#0000500800000000
(1503605607.516402) vcan0 00F4050D#00003B0800000000
(1503605607.618672) vcan0 00F4050D#0000C10700000000
(1503605607.720918) vcan0 00F4050D#0000CF0700000000
(1503605607.823147) vcan0 00F4050D#0000C80700000000
(1503605607.925471) vcan0 00F4050D#0000CC0700000000
(1503605608.027745) vcan0 00F4050D#0000420800000000
(1503605608.130267) vcan0 00F4050D#0000440800000000
(1503605608.232280) vcan0 00F4050D#00003B0800000000
(1503605608.334689) vcan0 00F4050D#00003A0800000000
(1503605608.436937) vcan0 00F4050D#0000CA0700000000
(1503605608.539223) vcan0 00F4050D#0000480800000000
(1503605608.641441) vcan0 00F4050D#00003A0800000000
(1503605608.743840) vcan0 00F4050D#0000BF0700000000
(1503605608.846224) vcan0 00F4050D#00003A0800000000
(1503605608.948447) vcan0 00F4050D#0000450800000000
(1503605609.050621) vcan0 00F4050D#0000D70700000000
(1503605609.152917) vcan0 00F4050D#0000CF0700000000
(1503605609.255214) vcan0 00F4050D#0000340800000000
(1503605609.357597) vcan0 00F4050D#0000D70700000000
(1503605609.459723) vcan0 00F4050D#0000290800000000
(1503605609.562051) vcan0 00F4050D#0000D40700000000
(1503605609.665581) vcan0 00F4050D#0000CA0700000000
(1503605609.766552) vcan0 00F4050D#0000320800000000
(1503605609.869018) vcan0 00F4050D#0000C50700000000
(1503605609.971303) vcan0 00F4050D#0000400800000000
(1503605610.073505) vcan0 00F4050D#0000400800000000
(1503605610.175780) vcan0 00F4050D#0000C10700000000
(1503605610.278009) vcan0 00F4050D#00003A0800000000
(1503605610.380381) vcan0 00F4050D#0000D50700000000
(1503605610.482532) vcan0 00F4050D#0000390800000000
(1503605610.584904) vcan0 00F4050D#00002F0800000000
(1503605610.687219) vcan0 00F4050D#0000D10700000000
(1503605610.789577) vcan0 00F4050D#0000BE0700000000
(1503605610.891775) vcan0 00F4050D#0000CF0700000000
(1503605610.994151) vcan0 00F4050D#0000DD0700000000
(1503605611.096421) vcan0 00F4050D#0000CB0700000000
(1503605611.198810) vcan0 00F4050D#0000CA0700000000
(1503605611.301102) vcan0 00F4050D#0000420800000000
(1503605611.403511) vcan0 00F4050D#0000CF0700000000
(1503605611.505702) vcan0 00F4050D#0000C50700000000
(1503605611.607907) vcan0 00F4050D#0000380800000000
(1503605611.710342) vcan0 00F4050D#0000D40700000000
(1503605611.812593) vcan0 00F4050D#0000BD0700000000
(1503605611.914818) vcan0 00F4050D#0000CF0700000000
(1503605612.017071) vcan0 00F4050D#00002F0800000000
(1503605612.119366) vcan0 00F4050D#0000CF0700000000
(1503605612.221599) vcan0 00F4050D#0000B90700000000
(1503605612.323978) vcan0 00F4050D#0000CD0700000000
(1503605612.426244) vcan0 00F4050D#0000DF0700000000
(1503605612.528680) vcan0 00F4050D#00003E0800000000
(1503605612.630896) vcan0 00F4050D#0000280800000000
(1503605612.733289) vcan0 00F4050D#0000C50700000000
(1503605612.835490) vcan0 00F4050D#0000B80700000000
(1503605612.937722) vcan0 00F4050D#0000BF0700000000
(1503605613.039975) vcan0 00F4050D#0000290800000000
(1503605613.142228) vcan0 00F4050D#0000370800000000
(1503605613.244689) vcan0 00F4050D#00002B0800000000
(1503605613.346817) vcan0 00F4050D#0000420800000000
(1503605613.449168) vcan0 00F4050D#0000C80700000000
(1503605613.551555) vcan0 00F4050D#0000470800000000
(1503605613.653746) vcan0 00F4050D#0000D00700000000
(1503605613.756161) vcan0 00F4050D#0000CA0700000000
(1503605613.858350) vcan0 00F4050D#00002A0800000000
(1503605613.960554) vcan0 00F4050D#0000460800000000
(1503605614.063004) vcan0 00F4050D#0000C70700000000
(1503605614.165164) vcan0 00F4050D#0000D20700000000
(1503605614.267522) vcan0 00F4050D#0000450800000000
(1503605614.369843) vcan0 00F4050D#0000320800000000
(1503605614.472210) vcan0 00F4050D#00003B0800000000
(1503605614.574399) vcan0 00F4050D#00003E0800000000
(1503605614.676577) vcan0 00F4050D#00003E0800000000
(1503605614.779001) vcan0 00F4050D#00003A0800000000
(1503605614.881373) vcan0 00F4050D#0000D50700000000
(1503605614.983617) vcan0 00F4050D#00003A0800000000
(1503605615.086005) vcan0 00F4050D#0000D30700000000
(1503605615.188190) vcan0 00F4050D#00003A0800000000
(1503605615.290448) vcan0 00F4050D#0000340800000000
(1503605615.392789) vcan0 00F4050D#0000470800000000
(1503605615.494997) vcan0 00F4050D#0000550800000000
(1503605615.597405) vcan0 00F4050D#00003A0800000000
(1503605615.699626) vcan0 00F4050D#0000CA0700000000
(1503605615.802039) vcan0 00F4050D#0000510800000000
(1503605615.904226) vcan0 00F4050D#0000290800000000
(1503605616.006575) vcan0 00F4050D#0000410800000000
(1503605616.108768) vcan0 00F4050D#0000370800000000
(1503605616.211127) vcan0 00F4050D#0000380800000000
(1503605616.313555) vcan0 00F4050D#0000CB0700000000
(1503605616.415768) vcan0 00F4050D#0000BE0700000000
(1503605616.518069) vcan0 00F4050D#0000D40700000000
(1503605616.620311) vcan0 00F4050D#0000CA0700000000
(1503605616.722663) vcan0 00F4050D#0000CE0700000000
(1503605616.824831) vcan0 00F4050D#0000BD0700000000
(1503605616.927026) vcan0 00F4050D#0000D20700000000
(1503605617.029498) vcan0 00F4050D#00002D0800000000
(1503605617.131848) vcan0 00F4050D#0000D00700000000
(1503605617.234059) vcan0 00F4050D#0000D70700000000
(1503605617.336305) vcan0 00F4050D#0000AF0700000000
(1503605617.438827) vcan0 00F4050D#0000320800000000
(1503605617.541143) vcan0 00F4050D#0000410800000000
(1503605617.643279) vcan0 00F4050D#0000C80700000000
(1503605617.745634) vcan0 00F4050D#0000C80700000000
(1503605617.847828) vcan0 00F4050D#00003A0800000000
(1503605617.950222) vcan0 00F4050D#0000D50700000000
(1503605618.052543) vcan0 00F4050D#0000D30700000000
(1503605618.154800) vcan0 00F4050D#0000B90700000000
(1503605618.257010) vcan0 00F4050D#0000CA0700000000
(1503605618.359432) vcan0 00F4050D#0000C50700000000
(1503605618.461669) vcan0 00F4050D#0000D50700000000
(1503605618.563854) vcan0 00F4050D#0000D00700000000
(1503605618.666207) vcan0 00F4050D#0000350800000000
(1503605618.768528) vcan0 00F4050D#00002E0800000000
(1503605618.870890) vcan0 00F4050D#0000400800000000
(1503605618.973044) vcan0 00F4050D#0000400800000000
(1503605619.075538) vcan0 00F4050D#0000C00700000000
(1503605619.177737) vcan0 00F4050D#0000D40700000000
(1503605619.279975) vcan0 00F4050D#0000D00700000000
(1503605619.382294) vcan0 00F4050D#0000CE0700000000
(1503605619.484555) vcan0 00F4050D#0000D50700000000
(1503605619.587037) vcan0 00F4050D#0000C70700000000
(1503605619.689193) vcan0 00F4050D#0000D40700000000
(1503605619.791423) vcan0 00F4050D#0000400800000000
(1503605619.893873) vcan0 00F4050D#0000CE0700000000
(1503605619.996091) vcan0 00F4050D#0000350800000000
(1503605620.098499) vcan0 00F4050D#0000440800000000
(1503605620.200767) vcan0 00F4050D#0000C80700000000
(1503605620.302806) vcan0 00F4050D#0000430800000000
(1503605620.405177) vcan0 00F4050D#0000350800000000
(1503605620.507516) vcan0 00F4050D#0000280800000000
(1503605620.609845) vcan0 00F4050D#0000400800000000
(1503605620.712202) vcan0 00F4050D#0000CA0700000000
(1503605620.814430) vcan0 00F4050D#0000D00700000000
(1503605620.916596) vcan0 00F4050D#0000C80700000000
(1503605621.019136) vcan0 00F4050D#0000D00700000000
(1503605621.121306) vcan0 00F4050D#0000C20700000000
(1503605621.223662) vcan0 00F4050D#00002A0800000000
(1503605621.325788) vcan0 00F4050D#0000300800000000
(1503605621.428239) vcan0 00F4050D#00003D0800000000
(1503605621.530396) vcan0 00F4050D#00003D0800000000
(1503605621.632906) vcan0 00F4050D#0000D10700000000
(1503605621.734970) vcan0 00F4050D#0000D70700000000
(1503605621.837282) vcan0 00F4050D#00002E0800000000
(1503605621.939711) vcan0 00F4050D#0000280800000000
(1503605622.041785) vcan0 00F4050D#0000D40700000000
(1503605622.144178) vcan0 00F4050D#00002B0800000000
(1503605622.246451) vcan0 00F4050D#0000CA0700000000
(1503605622.348875) vcan0 00F4050D#0000C80700000000
(1503605622.451032) vcan0 00F4050D#0000450800000000
(1503605622.553384) vcan0 00F4050D#0000D10700000000
(1503605622.655701) vcan0 00F4050D#0000B80700000000
(1503605622.758169) vcan0 00F4050D#0000440800000000
(1503605622.860319) vcan0 00F4050D#0000D00700000000
(1503605622.962627) vcan0 00F4050D#0000C70700000000
(1503605623.064969) vcan0 00F4050D#00002E0800000000
(1503605623.167381) vcan0 00F4050D#0000DF0700000000
(1503605623.269501) vcan0 00F4050D#0000290800000000
(1503605623.371983) vcan0 00F4050D#0000280800000000
(1503605623.474154) vcan0 00F4050D#0000CA0700000000
(1503605623.576414) vcan0 00F4050D#00003C0800000000
(1503605623.678748) vcan0 00F4050D#0000290800000000
(1503605623.780985) vcan0 00F4050D#0000B80700000000
(1503605623.883336) vcan0 00F4050D#0000D20700000000
(1503605623.985571) vcan0 00F4050D#0000370800000000
(1503605624.087726) vcan0 00F4050D#0000D00700000000
(1503605624.190262) vcan0 00F4050D#0000D70700000000
(1503605624.292442) vcan0 00F4050D#0000D30700000000
(1503605624.394822) vcan0 00F4050D#0000280800000000
(1503605624.496960) vcan0 00F4050D#00002D0800000000
(1503605624.599220) vcan0 00F4050D#0000D50700000000
(1503605624.701631) vcan0 00F4050D#0000400800000000
(1503605624.803717) vcan0 00F4050D#0000D00700000000
(1503605624.906140) vcan0 00F4050D#0000C90700000000
(1503605625.008262) vcan0 00F4050D#0000390800000000
(1503605625.110687) vcan0 00F4050D#0000CB0700000000
(1503605625.212929) vcan0 00F4050D#0000CC0700000000
(1503605625.315186) vcan0 00F4050D#00003F0800000000
(1503605625.417489) vcan0 00F4050D#0000C30700000000
(1503605625.519722) vcan0 00F4050D#00003A0800000000
(1503605625.621981) vcan0 00F4050D#0000BF0700000000
(1503605625.724329) vcan0 00F4050D#0000CA0700000000
(1503605625.826651) vcan0 00F4050D#0000CA0700000000
(1503605625.928833) vcan0 00F4050D#0000D00700000000
(1503605626.031187) vcan0 00F4050D#0000D50700000000
(1503605626.133498) vcan0 00F4050D#0000CA0700000000
(1503605626.235727) vcan0 00F4050D#0000C10700000000
(1503605626.337844) vcan0 00F4050D#0000280800000000
(1503605626.440156) vcan0 00F4050D#0000390800000000
(1503605626.542396) vcan0 00F4050D#0000D50700000000
(1503605626.644699) vcan0 00F4050D#0000410800000000
(1503605626.747016) vcan0 00F4050D#00002B0800000000
(1503605626.849256) vcan0 00F4050D#00003A0800000000
(1503605626.951581) vcan0 00F4050D#0000D50700000000
(1503605627.053966) vcan0 00F4050D#0000C10700000000
(1503605627.156150) vcan0 00F4050D#0000320800000000
(1503605627.258400) vcan0 00F4050D#0000290800000000
(1503605627.360731) vcan0 00F4050D#0000370800000000
(1503605627.462912) vcan0 00F4050D#0000D00700000000
(1503605627.565228) vcan0 00F4050D#0000BF0700000000
(1503605627.667496) vcan0 00F4050D#0000D50700000000
(1503605627.769793) vcan0 00F4050D#0000310800000000
(1503605627.872138) vcan0 00F4050D#0000420800000000
(1503605627.974393) vcan0 00F4050D#00002F0800000000
(1503605628.076652) vcan0 00F4050D#0000D50700000000
(1503605628.178980) vcan0 00F4050D#0000BE0700000000
(1503605628.281355) vcan0 00F4050D#0000280800000000
(1503605628.383582) vcan0 00F4050D#0000340800000000
(1503605628.486039) vcan0 00F4050D#00002F0800000000
(1503605628.588201) vcan0 00F4050D#0000C60700000000
(1503605628.690408) vcan0 00F4050D#0000D70700000000
(1503605628.792706) vcan0 00F4050D#0000330800000000
(1503605628.895017) vcan0 00F4050D#00003F0800000000
(1503605628.997380) vcan0 00F4050D#0000230800000000
(1503605629.099628) vcan0 00F4050D#0000400800000000
(1503605629.202118) vcan0 00F4050D#0000450800000000
(1503605629.304308) vcan0 00F4050D#0000380800000000
(1503605629.406697) vcan0 00F4050D#0000CE0700000000
(1503605629.508909) vcan0 00F4050D#0000400800000000
(1503605629.611306) vcan0 00F4050D#0000BF0700000000
(1503605629.713519) vcan0 00F4050D#0000420800000000
(1503605629.815983) vcan0 00F4050D#0000B90700000000
(1503605629.918090) vcan0 00F4050D#0000380800000000
(1503605630.020393) vcan0 00F4050D#0000280800000000
(1503605630.122849) vcan0 00F4050D#0000360800000000
(1503605630.224921) vcan0 00F4050D#0000350800000000
(1503605630.327322) vcan0 00F4050D#0000DD0700000000
(1503605630.429639) vcan0 00F4050D#0000D50700000000
(1503605630.531771) vcan0 00F4050D#0000BF0700000000
(1503605630.634121) vcan0 00F4050D#0000D00700000000
(1503605630.736579) vcan0 00F4050D#0000D60700000000
(1503605630.838694) vcan0 00F4050D#0000CC0700000000
(1503605630.941069) vcan0 00F4050D#0000380800000000
(1503605631.043444) vcan0 00F4050D#0000D40700000000
(1503605631.145681) vcan0 00F4050D#0000D00700000000
(1503605631.247914) vcan0 00F4050D#0000420800000000
(1503605631.350277) vcan0 00F4050D#0000220800000000
(1503605631.452735) vcan0 00F4050D#0000370800000000
(1503605631.554758) vcan0 00F4050D#0000280800000000
(1503605631.657279) vcan0 00F4050D#0000BF0700000000
(1503605631.759493) vcan0 00F4050D#0000CF0700000000
(1503605631.861739) vcan0 00F4050D#0000400800000000
(1503605631.964029) vcan0 00F4050D#0000D50700000000
(1503605632.066415) vcan0 00F4050D#0000BD0700000000
(1503605632.168608) vcan0 00F4050D#0000CE0700000000
(1503605632.271051) vcan0 00F4050D#0000420800000000
(1503605632.373231) vcan0 00F4050D#0000BF0700000000
(1503605632.475634) vcan0 00F4050D#0000400800000000
(1503605632.577841) vcan0 00F4050D#0000D00700000000
(1503605632.680146) vcan0 00F4050D#0000CF0700000000
(1503605632.782430) vcan0 00F4050D#0000440800000000
(1503605632.884715) vcan0 00F4050D#0000CF0700000000
(1503605632.987106) vcan0 00F4050D#0000BD0700000000
(1503605633.089292) vcan0 00F4050D#0000C50700000000
(1503605633.191527) vcan0 00F4050D#0000500800000000
(1503605633.293874) vcan0 00F4050D#0000BB0700000000
(1503605633.396153) vcan0 00F4050D#00003A0800000000
(1503605633.498460) vcan0 00F4050D#0000D20700000000
(1503605633.600757) vcan0 00F4050D#0000C90700000000
(1503605633.703091) vcan0 00F4050D#00002B0800000000
(1503605633.805342) vcan0 00F4050D#0000CF0700000000
(1503605633.907687) vcan0 00F4050D#0000CE0700000000
(1503605634.009983) vcan0 00F4050D#0000440800000000
(1503605634.112261) vcan0 00F4050D#0000350800000000
(1503605634.214567) vcan0 00F4050D#0000BD0700000000
(1503605634.316913) vcan0 00F4050D#0000390800000000
(1503605634.419077) vcan0 00F4050D#0000D30700000000
(1503605634.521393) vcan0 00F4050D#0000350800000000
(1503605634.623718) vcan0 00F4050D#0000D40700000000
(1503605634.726050) vcan0 00F4050D#00003A0800000000
(1503605634.828260) vcan0 00F4050D#0000400800000000
(1503605634.930599) vcan0 00F4050D#0000BE0700000000
(1503605635.033180) vcan0 00F4050D#0000470800000000
(1503605635.135175) vcan0 00F4050D#00004C0800000000
(1503605635.237566) vcan0 00F4050D#0000D50700000000
(1503605635.339984) vcan0 00F4050D#0000500800000000
(1503605635.442126) vcan0 00F4050D#0000CB0700000000
(1503605635.544413) vcan0 00F4050D#0000450800000000
(1503605635.646785) vcan0 00F4050D#00002F0800000000
(1503605635.749006) vcan0 00F4050D#0000CD0700000000
(1503605635.851247) vcan0 00F4050D#0000500800000000
(1503605635.953636) vcan0 00F4050D#0000C80700000000
(1503605636.055968) vcan0 00F4050D#0000380800000000
(1503605636.158243) vcan0 00F4050D#00003A0800000000
(1503605636.260341) vcan0 00F4050D#0000440800000000
(1503605636.362704) vcan0 00F4050D#0000D00700000000
(1503605636.465047) vcan0 00F4050D#0000390800000000
(1503605636.567415) vcan0 00F4050D#00003A0800000000
(1503605636.669631) vcan0 00F4050D#0000BF0700000000
(1503605636.771849) vcan0 00F4050D#0000440800000000
(1503605636.874203) vcan0 00F4050D#0000D00700000000
(1503605636.976546) vcan0 00F4050D#0000490800000000
(1503605637.078935) vcan0 00F4050D#0000D10700000000
(1503605637.181221) vcan0 00F4050D#0000320800000000
(1503605637.283339) vcan0 00F4050D#00002F0800000000
(1503605637.385804) vcan0 00F4050D#0000CE0700000000
(1503605637.487982) vcan0 00F4050D#00002D0800000000
(1503605637.590366) vcan0 00F4050D#0000BE0700000000
(1503605637.692612) vcan0 00F4050D#0000350800000000
(1503605637.794930) vcan0 00F4050D#0000CB0700000000
(1503605637.897305) vcan0 00F4050D#0000410800000000
(1503605637.999564) vcan0 00F4050D#0000380800000000
(1503605638.101795) vcan0 00F4050D#0000DD0700000000
(1503605638.204204) vcan0 00F4050D#0000360800000000
(1503605638.306364) vcan0 00F4050D#0000C50700000000
(1503605638.408803) vcan0 00F4050D#00002B0800000000
(1503605638.511024) vcan0 00F4050D#0000470800000000
(1503605638.613402) vcan0 00F4050D#0000B80700000000
(1503605638.715660) vcan0 00F4050D#0000CC0700000000
(1503605638.817954) vcan0 00F4050D#0000400800000000
(1503605638.920166) vcan0 00F4050D#00002F0800000000
(1503605639.022498) vcan0 00F4050D#0000D50700000000
(1503605639.124728) vcan0 00F4050D#0000CA0700000000
(1503605639.227200) vcan0 00F4050D#0000CA0700000000
(1503605639.329425) vcan0 00F4050D#0000D70700000000
(1503605639.431721) vcan0 00F4050D#0000CA0700000000
(1503605639.533977) vcan0 00F4050D#0000370800000000
(1503605639.636255) vcan0 00F4050D#0000D20700000000
(1503605639.738619) vcan0 00F4050D#00002B0800000000
(1503605639.840862) vcan0 00F4050D#0000D40700000000
(1503605639.943051) vcan0 00F4050D#0000BF0700000000
(1503605640.045457) vcan0 00F4050D#0000420800000000
(1503605640.147749) vcan0 00F4050D#0000B90700000000
(1503605640.250006) vcan0 00F4050D#0000BF0700000000
(1503605640.352171) vcan0 00F4050D#0000450800000000
(1503605640.454472) vcan0 00F4050D#0000B90700000000
(1503605640.556704) vcan0 00F4050D#0000D00700000000
(1503605640.659117) vcan0 00F4050D#0000400800000000
(1503605640.761378) vcan0 00F4050D#0000360800000000
(1503605640.863841) vcan0 00F4050D#00003B0800000000
(1503605640.965937) vcan0 00F4050D#0000310800000000
(1503605641.068276) vcan0 00F4050D#0000D50700000000
(1503605641.170547) vcan0 00F4050D#0000360800000000
(1503605641.273036) vcan0 00F4050D#0000470800000000
(1503605641.375255) vcan0 00F4050D#0000280800000000
(1503605641.477566) vcan0 00F4050D#0000460800000000
(1503605641.579957) vcan0 00F4050D#0000480800000000
(1503605641.682125) vcan0 00F4050D#0000CF0700000000
(1503605641.784421) vcan0 00F4050D#0000CD0700000000
(1503605641.886807) vcan0 00F4050D#00002F0800000000
(1503605641.989142) vcan0 00F4050D#0000440800000000
(1503605642.091470) vcan0 00F4050D#0000D70700000000
(1503605642.193683) vcan0 00F4050D#0000D50700000000
(1503605642.295970) vcan0 00F4050D#0000CA0700000000
(1503605642.398242) vcan0 00F4050D#0000CE0700000000
(1503605642.500546) vcan0 00F4050D#0000310800000000
(1503605642.602738) vcan0 00F4050D#0000BF0700000000
(1503605642.705172) vcan0 00F4050D#0000CF0700000000
(1503605642.807327) vcan0 00F4050D#0000400800000000
(1503605642.909623) vcan0 00F4050D#0000D70700000000
(1503605643.011928) vcan0 00F4050D#00002E0800000000
(1503605643.114213) vcan0 00F4050D#0000440800000000
(1503605643.216610) vcan0 00F4050D#0000B80700000000
(1503605643.318676) vcan0 00F4050D#0000310800000000
(1503605643.421061) vcan0 00F4050D#0000380800000000
(1503605643.523362) vcan0 00F4050D#0000CB0700000000
(1503605643.625750) vcan0 00F4050D#0000CF0700000000
(1503605643.727961) vcan0 00F4050D#00002F0800000000
(1503605643.830349) vcan0 00F4050D#0000400800000000
(1503605643.932477) vcan0 00F4050D#0000D50700000000
(1503605644.034805) vcan0 00F4050D#0000330800000000
(1503605644.137124) vcan0 00F4050D#0000D20700000000
(1503605644.239412) vcan0 00F4050D#0000D70700000000
(1503605644.341550) vcan0 00F4050D#0000280800000000
(1503605644.444038) vcan0 00F4050D#0000190800000000
(1503605644.546250) vcan0 00F4050D#0000C90700000000
(1503605644.648482) vcan0 00F4050D#0000CA0700000000
(1503605644.750833) vcan0 00F4050D#0000BD0700000000
(1503605644.853042) vcan0 00F4050D#00004A0800000000
(1503605644.955508) vcan0 00F4050D#00002D0800000000
(1503605645.057749) vcan0 00F4050D#0000DD0700000000
(1503605645.160004) vcan0 00F4050D#00003B0800000000
(1503605645.262303) vcan0 00F4050D#0000400800000000
(1503605645.364651) vcan0 00F4050D#0000400800000000
(1503605645.466872) vcan0 00F4050D#0000400800000000
(1503605645.569278) vcan0 00F4050D#0000CB0700000000
(1503605645.671580) vcan0 00F4050D#0000CA0700000000
(1503605645.773843) vcan0 00F4050D#0000BD0700000000
(1503605645.876124) vcan0 00F4050D#0000D70700000000
(1503605645.978344) vcan0 00F4050D#0000D40700000000
(1503605646.080607) vcan0 00F4050D#0000BE0700000000
(1503605646.182877) vcan0 00F4050D#0000C90700000000
(1503605646.285195) vcan0 00F4050D#0000360800000000
(1503605646.387460) vcan0 00F4050D#0000D70700000000
(1503605646.489738) vcan0 00F4050D#0000C80700000000
(1503605646.591987) vcan0 00F4050D#0000D20700000000
(1503605646.694413) vcan0 00F4050D#0000400800000000
(1503605646.796758) vcan0 00F4050D#0000450800000000
(1503605646.898869) vcan0 00F4050D#00003A0800000000
(1503605647.001320) vcan0 00F4050D#00003A0800000000
(1503605647.103591) vcan0 00F4050D#0000370800000000
(1503605647.205939) vcan0 00F4050D#00002A0800000000
(1503605647.308100) vcan0 00F4050D#0000D10700000000
(1503605647.410425) vcan0 00F4050D#0000C80700000000
(1503605647.512750) vcan0 00F4050D#0000B80700000000
(1503605647.615114) vcan0 00F4050D#0000CE0700000000
(1503605647.717343) vcan0 00F4050D#0000D00700000000
(1503605647.819570) vcan0 00F4050D#0000D40700000000
(1503605647.922052) vcan0 00F4050D#0000CC0700000000
(1503605648.024288) vcan0 00F4050D#0000380800000000
(1503605648.126568) vcan0 00F4050D#0000460800000000
(1503605648.228824) vcan0 00F4050D#0000C80700000000
(1503605648.331185) vcan0 00F4050D#0000250800000000
(1503605648.433566) vcan0 00F4050D#0000D20700000000
(1503605648.535893) vcan0 00F4050D#0000CA0700000000
(1503605648.638242) vcan0 00F4050D#0000D20700000000
(1503605648.740380) vcan0 00F4050D#0000CA0700000000
(1503605648.842720) vcan0 00F4050D#0000D70700000000
(1503605648.944897) vcan0 00F4050D#0000310800000000
(1503605649.047292) vcan0 00F4050D#0000400800000000
(1503605649.149617) vcan0 00F4050D#0000D50700000000
(1503605649.251758) vcan0 00F4050D#0000C90700000000
(1503605649.354185) vcan0 00F4050D#0000C80700000000
(1503605649.456365) vcan0 00F4050D#0000D00700000000
(1503605649.558715) vcan0 00F4050D#00002B0800000000
(1503605649.660945) vcan0 00F4050D#00002A0800000000
(1503605649.763306) vcan0 00F4050D#0000440800000000
(1503605649.865611) vcan0 00F4050D#0000CE0700000000
(1503605649.967894) vcan0 00F4050D#0000C70700000000
(1503605650.070228) vcan0 00F4050D#0000D00700000000
(1503605650.172518) vcan0 00F4050D#0000CB0700000000
(1503605650.274957) vcan0 00F4050D#0000CA0700000000
(1503605650.377319) vcan0 00F4050D#0000450800000000
(1503605650.479582) vcan0 00F4050D#00002F0800000000
(1503605650.581995) vcan0 00F4050D#0000D50700000000
(1503605650.685221) vcan0 00F4050D#0000D50700000000
(1503605650.786300) vcan0 00F4050D#0000B90700000000
(1503605650.888689) vcan0 00F4050D#0000450800000000
(1503605650.990851) vcan0 00F4050D#0000BF0700000000
(1503605651.093199) vcan0 00F4050D#0000440800000000
(1503605651.195501) vcan0 00F4050D#0000450800000000
(1503605651.297767) vcan0 00F4050D#00002E0800000000
(1503605651.400106) vcan0 00F4050D#0000360800000000
(1503605651.502334) vcan0 00F4050D#0000AF0700000000
(1503605651.604707) vcan0 00F4050D#00002F0800000000
(1503605651.706937) vcan0 00F4050D#0000DC0700000000
(1503605651.809164) vcan0 00F4050D#0000400800000000
(1503605651.911499) vcan0 00F4050D#0000340800000000
(1503605652.013830) vcan0 00F4050D#0000BE0700000000
(1503605652.116102) vcan0 00F4050D#00003A0800000000
(1503605652.218336) vcan0 00F4050D#00002D0800000000
(1503605652.320697) vcan0 00F4050D#0000D00700000000
(1503605652.422960) vcan0 00F4050D#0000400800000000
(1503605652.525237) vcan0 00F4050D#0000280800000000
(1503605652.627688) vcan0 00F4050D#0000CD0700000000
(1503605652.729910) vcan0 00F4050D#0000400800000000
(1503605652.832109) vcan0 00F4050D#0000350800000000
(1503605652.934654) vcan0 00F4050D#0000330800000000
(1503605653.036862) vcan0 00F4050D#0000C20700000000
(1503605653.139145) vcan0 00F4050D#0000C70700000000
(1503605653.241325) vcan0 00F4050D#0000D00700000000
(1503605653.343829) vcan0 00F4050D#0000C50700000000
(1503605653.445933) vcan0 00F4050D#0000190800000000
(1503605653.548257) vcan0 00F4050D#0000CA0700000000
(1503605653.650500) vcan0 00F4050D#0000380800000000
(1503605653.752757) vcan0 00F4050D#0000BB0700000000
(1503605653.855385) vcan0 00F4050D#0000440800000000
(1503605653.957558) vcan0 00F4050D#0000300800000000
(1503605654.059746) vcan0 00F4050D#0000300800000000
(1503605654.162104) vcan0 00F4050D#0000400800000000
(1503605654.264358) vcan0 00F4050D#0000350800000000
(1503605654.366671) vcan0 00F4050D#0000CA0700000000
(1503605654.468956) vcan0 00F4050D#0000400800000000
(1503605654.571109) vcan0 00F4050D#0000B90700000000
(1503605654.673672) vcan0 00F4050D#00002A0800000000
(1503605654.775769) vcan0 00F4050D#0000D20700000000
(1503605654.877989) vcan0 00F4050D#0000C80700000000
(1503605654.980429) vcan0 00F4050D#0000380800000000
(1503605655.082702) vcan0 00F4050D#0000290800000000
(1503605655.185024) vcan0 00F4050D#0000D00700000000
(1503605655.287219) vcan0 00F4050D#0000450800000000
(1503605655.389590) vcan0 00F4050D#0000D50700000000
(1503605655.491795) vcan0 00F4050D#0000CB0700000000
(1503605655.594118) vcan0 00F4050D#00003A0800000000
(1503605655.696448) vcan0 00F4050D#0000360800000000
(1503605655.798757) vcan0 00F4050D#00003D0800000000
(1503605655.900948) vcan0 00F4050D#0000C30700000000
(1503605656.003327) vcan0 00F4050D#00002F0800000000
(1503605656.105686) vcan0 00F4050D#0000CE0700000000
(1503605656.207844) vcan0 00F4050D#0000D50700000000
(1503605656.310100) vcan0 00F4050D#0000D50700000000
(1503605656.412443) vcan0 00F4050D#0000DA0700000000
(1503605656.514818) vcan0 00F4050D#0000CA0700000000
(1503605656.617113) vcan0 00F4050D#0000280800000000
(1503605656.719477) vcan0 00F4050D#0000CA0700000000
(1503605656.821622) vcan0 00F4050D#0000D40700000000
(1503605656.924044) vcan0 00F4050D#0000360800000000
(1503605657.026324) vcan0 00F4050D#0000370800000000
(1503605657.128669) vcan0 00F4050D#00002E0800000000
(1503605657.230906) vcan0 00F4050D#0000400800000000
(1503605657.333513) vcan0 00F4050D#0000420800000000
(1503605657.435533) vcan0 00F4050D#0000370800000000
(1503605657.537733) vcan0 00F4050D#0000CD0700000000
(1503605657.640185) vcan0 00F4050D#0000470800000000
(1503605657.742212) vcan0 00F4050D#0000D30700000000
(1503605657.844648) vcan0 00F4050D#00002F0800000000
(1503605657.946935) vcan0 00F4050D#0000440800000000
(1503605658.049165) vcan0 00F4050D#00003B0800000000
(1503605658.151431) vcan0 00F4050D#0000D50700000000
(1503605658.253733) vcan0 00F4050D#00003A0800000000
(1503605658.356142) vcan0 00F4050D#00003A0800000000
(1503605658.458285) vcan0 00F4050D#00003A0800000000
(1503605658.560629) vcan0 00F4050D#0000CD0700000000
(1503605658.662872) vcan0 00F4050D#0000450800000000
(1503605658.765097) vcan0 00F4050D#0000D20700000000
(1503605658.867422) vcan0 00F4050D#0000DD0700000000
(1503605658.969788) vcan0 00F4050D#0000400800000000
(1503605659.072068) vcan0 00F4050D#0000D30700000000
(1503605659.174250) vcan0 00F4050D#0000370800000000
(1503605659.276581) vcan0 00F4050D#0000440800000000
(1503605659.378916) vcan0 00F4050D#0000CA0700000000
(1503605659.481074) vcan0 00F4050D#0000420800000000
(1503605659.583415) vcan0 00F4050D#00003D0800000000
(1503605659.685841) vcan0 00F4050D#0000DC0700000000
(1503605659.788050) vcan0 00F4050D#00003D0800000000
(1503605659.890483) vcan0 00F4050D#0000CA0700000000
(1503605659.992546) vcan0 00F4050D#0000310800000000
(1503605660.095013) vcan0 00F4050D#0000CF0700000000
(1503605660.197099) vcan0 00F4050D#0000D40700000000
(1503605660.299504) vcan0 00F4050D#0000370800000000
(1503605660.401663) vcan0 00F4050D#0000C10700000000
(1503605660.504137) vcan0 00F4050D#0000450800000000
(1503605660.606301) vcan0 00F4050D#00003A0800000000
(1503605660.708805) vcan0 00F4050D#0000DF0700000000
(1503605660.810867) vcan0 00F4050D#0000290800000000
(1503605660.913361) vcan0 00F4050D#0000CA0700000000
(1503605661.015569) vcan0 00F4050D#0000B90700000000
(1503605661.117831) vcan0 00F4050D#00002B0800000000
(1503605661.220104) vcan0 00F4050D#0000280800000000
(1503605661.322293) vcan0 00F4050D#0000D30700000000
(1503605661.424769) vcan0 00F4050D#0000D00700000000
(1503605661.526882) vcan0 00F4050D#00003D0800000000
(1503605661.629332) vcan0 00F4050D#0000CF0700000000
(1503605661.731598) vcan0 00F4050D#0000D40700000000
(1503605661.833945) vcan0 00F4050D#0000C50700000000
(1503605661.936370) vcan0 00F4050D#0000CA0700000000
(1503605662.038533) vcan0 00F4050D#0000D50700000000
(1503605662.140824) vcan0 00F4050D#0000CB0700000000
(1503605662.243205) vcan0 00F4050D#0000D50700000000
(1503605662.345437) vcan0 00F4050D#0000450800000000
(1503605662.447806) vcan0 00F4050D#0000D80700000000
(1503605662.550064) vcan0 00F4050D#0000DD0700000000
(1503605662.652291) vcan0 00F4050D#0000320800000000
(1503605662.754437) vcan0 00F4050D#0000BA0700000000
(1503605662.856715) vcan0 00F4050D#0000420800000000
(1503605662.959216) vcan0 00F4050D#0000CA0700000000
(1503605663.061404) vcan0 00F4050D#0000400800000000
(1503605663.163694) vcan0 00F4050D#0000BF0700000000
(1503605663.266023) vcan0 00F4050D#0000C80700000000
(1503605663.368220) vcan0 00F4050D#0000D20700000000
(1503605663.470595) vcan0 00F4050D#0000D80700000000
(1503605663.572851) vcan0 00F4050D#0000D60700000000
(1503605663.675117) vcan0 00F4050D#0000C50700000000
(1503605663.777363) vcan0 00F4050D#00002F0800000000
(1503605663.879712) vcan0 00F4050D#0000D20700000000
(1503605663.981988) vcan0 00F4050D#00002D0800000000
(1503605664.084351) vcan0 00F4050D#0000310800000000
(1503605664.186582) vcan0 00F4050D#0000310800000000
(1503605664.288925) vcan0 00F4050D#0000540800000000
(1503605664.391199) vcan0 00F4050D#0000500800000000
(1503605664.493627) vcan0 00F4050D#0000310800000000
(1503605664.596033) vcan0 00F4050D#0000CB0700000000
(1503605664.698198) vcan0 00F4050D#0000CB0700000000
(1503605664.800378) vcan0 00F4050D#0000CA0700000000
(1503605664.902764) vcan0 00F4050D#00002B0800000000
(1503605665.004980) vcan0 00F4050D#0000CB0700000000
(1503605665.107273) vcan0 00F4050D#0000CA0700000000
(1503605665.209623) vcan0 00F4050D#0000D70700000000
(1503605665.311983) vcan0 00F4050D#0000D00700000000
(1503605665.414228) vcan0 00F4050D#0000400800000000
(1503605665.516335) vcan0 00F4050D#0000D10700000000
(1503605665.618761) vcan0 00F4050D#0000380800000000
(1503605665.721092) vcan0 00F4050D#0000420800000000
(1503605665.823281) vcan0 00F4050D#0000D70700000000
(1503605665.925774) vcan0 00F4050D#0000CA0700000000
(1503605666.027920) vcan0 00F4050D#0000D50700000000
(1503605666.130280) vcan0 00F4050D#0000420800000000
(1503605666.232557) vcan0 00F4050D#0000C10700000000
(1503605666.334856) vcan0 00F4050D#0000450800000000
(1503605666.437111) vcan0 00F4050D#0000B80700000000
(1503605666.539572) vcan0 00F4050D#0000BF0700000000
(1503605666.641829) vcan0 00F4050D#0000410800000000
(1503605666.744193) vcan0 00F4050D#0000380800000000
(1503605666.846430) vcan0 00F4050D#0000350800000000
(1503605666.948793) vcan0 00F4050D#0000340800000000
(1503605667.050888) vcan0 00F4050D#0000BF0700000000
(1503605667.153245) vcan0 00F4050D#0000370800000000
(1503605667.255467) vcan0 00F4050D#0000440800000000
(1503605667.357897) vcan0 00F4050D#0000C50700000000
(1503605667.460186) vcan0 00F4050D#0000410800000000
(1503605667.562540) vcan0 00F4050D#00003F0800000000
(1503605667.664774) vcan0 00F4050D#0000C90700000000
(1503605667.767121) vcan0 00F4050D#0000410800000000
(1503605667.869436) vcan0 00F4050D#0000450800000000
(1503605667.971772) vcan0 00F4050D#0000410800000000
(1503605668.074126) vcan0 00F4050D#0000CA0700000000
(1503605668.176341) vcan0 00F4050D#0000D70700000000
(1503605668.278561) vcan0 00F4050D#0000D50700000000
(1503605668.380939) vcan0 00F4050D#0000390800000000
(1503605668.483143) vcan0 00F4050D#00003D0800000000
(1503605668.585500) vcan0 00F4050D#0000350800000000
(1503605668.687727) vcan0 00F4050D#0000D00700000000
(1503605668.789992) vcan0 00F4050D#0000C70700000000
(1503605668.892300) vcan0 00F4050D#0000D40700000000
(1503605668.994529) vcan0 00F4050D#0000C90700000000
(1503605669.096869) vcan0 00F4050D#0000500800000000
(1503605669.199217) vcan0 00F4050D#0000390800000000
(1503605669.301334) vcan0 00F4050D#0000260800000000
(1503605669.403728) vcan0 00F4050D#0000D40700000000
(1503605669.505934) vcan0 00F4050D#0000350800000000
(1503605669.608238) vcan0 00F4050D#0000BA0700000000
(1503605669.710505) vcan0 00F4050D#00003D0800000000
(1503605669.812928) vcan0 00F4050D#0000370800000000
(1503605669.915163) vcan0 00F4050D#0000360800000000
(1503605670.017415) vcan0 00F4050D#0000BB0700000000
(1503605670.119845) vcan0 00F4050D#0000CE0700000000
(1503605670.222259) vcan0 00F4050D#0000D70700000000
(1503605670.324441) vcan0 00F4050D#0000BD0700000000
(1503605670.426681) vcan0 00F4050D#0000C60700000000
(1503605670.528900) vcan0 00F4050D#00003F0800000000
(1503605670.631278) vcan0 00F4050D#0000CA0700000000
(1503605670.733632) vcan0 00F4050D#0000230800000000
(1503605670.835853) vcan0 00F4050D#0000400800000000
(1503605670.938172) vcan0 00F4050D#0000D50700000000
(1503605671.040392) vcan0 00F4050D#0000CA0700000000
(1503605671.142613) vcan0 00F4050D#00003A0800000000
(1503605671.245002) vcan0 00F4050D#0000400800000000
(1503605671.347231) vcan0 00F4050D#00002F0800000000
(1503605671.449651) vcan0 00F4050D#0000310800000000
(1503605671.551962) vcan0 00F4050D#0000330800000000
(1503605671.654250) vcan0 00F4050D#0000350800000000
(1503605671.756360) vcan0 00F4050D#0000320800000000
(1503605671.858684) vcan0 00F4050D#0000BE0700000000
(1503605671.961077) vcan0 00F4050D#0000D50700000000
(1503605672.063342) vcan0 00F4050D#0000380800000000
(1503605672.165548) vcan0 00F4050D#0000D30700000000
(1503605672.267894) vcan0 00F4050D#00002A0800000000
(1503605672.370087) vcan0 00F4050D#0000370800000000
(1503605672.472448) vcan0 00F4050D#00003D0800000000
(1503605672.574686) vcan0 00F4050D#0000400800000000
(1503605672.676964) vcan0 00F4050D#0000CE0700000000
(1503605672.779336) vcan0 00F4050D#00003A0800000000
(1503605672.881637) vcan0 00F4050D#00004A0800000000
(1503605672.984001) vcan0 00F4050D#0000C70700000000
(1503605673.086548) vcan0 00F4050D#0000D00700000000
(1503605673.188461) vcan0 00F4050D#0000350800000000
(1503605673.290795) vcan0 00F4050D#0000CD0700000000
(1503605673.393181) vcan0 00F4050D#00003A0800000000
(1503605673.495415) vcan0 00F4050D#0000380800000000
(1503605673.597706) vcan0 00F4050D#0000CA0700000000
(1503605673.699838) vcan0 00F4050D#00003A0800000000
(1503605673.802219) vcan0 00F4050D#0000390800000000
(1503605673.904683) vcan0 00F4050D#0000320800000000
(1503605674.006878) vcan0 00F4050D#0000BF0700000000
(1503605674.109114) vcan0 00F4050D#0000CF0700000000
(1503605674.211429) vcan0 00F4050D#0000440800000000
(1503605674.313799) vcan0 00F4050D#0000DC0700000000
(1503605674.416146) vcan0 00F4050D#0000400800000000
(1503605674.518282) vcan0 00F4050D#00002F0800000000
(1503605674.620718) vcan0 00F4050D#00002B0800000000
(1503605674.722918) vcan0 00F4050D#0000CA0700000000
(1503605674.825095) vcan0 00F4050D#0000280800000000
(1503605674.927468) vcan0 00F4050D#0000BE0700000000
(1503605675.029625) vcan0 00F4050D#0000C80700000000
(1503605675.132088) vcan0 00F4050D#0000D60700000000
(1503605675.234337) vcan0 00F4050D#0000D00700000000
(1503605675.336592) vcan0 00F4050D#0000CD0700000000
(1503605675.438844) vcan0 00F4050D#0000C50700000000
(1503605675.541183) vcan0 00F4050D#0000D00700000000
(1503605675.643449) vcan0 00F4050D#0000B80700000000
(1503605675.745796) vcan0 00F4050D#0000C80700000000
(1503605675.848027) vcan0 00F4050D#0000370800000000
(1503605675.950415) vcan0 00F4050D#0000D40700000000
(1503605676.052752) vcan0 00F4050D#00002F0800000000
